Title: * ============================================================
Date: Thu May  7 00:01:17  2026
Command: ngspice-46, Build Mar 29 2026   15:02:07
Plotname: Transient Analysis
Flags: real
No. Variables: 3
No. Points: 763
Variables:
	0	time	time
	1	v(vtop)	voltage
	2	v(vtop_int)	voltage
Values:
 0	0.000000000000000e+00
	0.000000000000000e+00
	0.000000000000000e+00

 1	1.000000000000000e-10
	1.494585443572225e-17
	1.494585443567203e-17

 2	2.000000000000000e-10
	1.494585443572225e-17
	1.494585443567203e-17

 3	4.000000000000000e-10
	1.494585443572225e-17
	1.494585443567203e-17

 4	8.000000000000000e-10
	8.028629407706261e-18
	8.028629407679286e-18

 5	1.600000000000000e-09
	4.169334847736449e-18
	4.169334847722440e-18

 6	3.200000000000000e-09
	2.125711554097262e-18
	2.125711554090119e-18

 7	6.400000000000000e-09
	1.073422860113510e-18
	1.073422860109903e-18

 8	1.280000000000000e-08
	5.393927950135953e-19
	5.393927950117829e-19

 9	2.280000000000000e-08
	8.105469852517358e-19
	8.105469852490123e-19

 10	3.280000000000000e-08
	8.105469852517358e-19
	8.105469852490123e-19

 11	4.280000000000000e-08
	8.105469852517358e-19
	8.105469852490123e-19

 12	5.280000000000000e-08
	8.105469852517358e-19
	8.105469852490123e-19

 13	6.279999999999999e-08
	8.105469852517358e-19
	8.105469852490123e-19

 14	7.279999999999999e-08
	8.105469852517358e-19
	8.105469852490123e-19

 15	8.279999999999999e-08
	8.105469852517358e-19
	8.105469852490123e-19

 16	9.279999999999998e-08
	8.105469852517358e-19
	8.105469852490123e-19

 17	1.028000000000000e-07
	8.105469852517358e-19
	8.105469852490123e-19

 18	1.128000000000000e-07
	8.105469852517358e-19
	8.105469852490123e-19

 19	1.228000000000000e-07
	8.105469852517358e-19
	8.105469852490123e-19

 20	1.328000000000000e-07
	8.105469852517358e-19
	8.105469852490123e-19

 21	1.428000000000000e-07
	8.105469852517358e-19
	8.105469852490123e-19

 22	1.528000000000000e-07
	8.105469852517358e-19
	8.105469852490123e-19

 23	1.628000000000000e-07
	8.105469852517358e-19
	8.105469852490123e-19

 24	1.728000000000000e-07
	8.105469852517358e-19
	8.105469852490123e-19

 25	1.828000000000000e-07
	8.105469852517358e-19
	8.105469852490123e-19

 26	1.928000000000001e-07
	8.105469852517358e-19
	8.105469852490123e-19

 27	2.028000000000001e-07
	8.105469852517358e-19
	8.105469852490123e-19

 28	2.128000000000001e-07
	8.105469852517358e-19
	8.105469852490123e-19

 29	2.228000000000001e-07
	8.105469852517358e-19
	8.105469852490123e-19

 30	2.328000000000001e-07
	8.105469852517358e-19
	8.105469852490123e-19

 31	2.428000000000001e-07
	8.105469852517358e-19
	8.105469852490123e-19

 32	2.528000000000001e-07
	8.105469852517358e-19
	8.105469852490123e-19

 33	2.628000000000001e-07
	8.105469852517358e-19
	8.105469852490123e-19

 34	2.728000000000001e-07
	8.105469852517358e-19
	8.105469852490123e-19

 35	2.828000000000001e-07
	8.105469852517358e-19
	8.105469852490123e-19

 36	2.928000000000001e-07
	8.105469852517358e-19
	8.105469852490123e-19

 37	3.028000000000001e-07
	8.105469852517358e-19
	8.105469852490123e-19

 38	3.128000000000002e-07
	8.105469852517358e-19
	8.105469852490123e-19

 39	3.228000000000002e-07
	8.105469852517358e-19
	8.105469852490123e-19

 40	3.328000000000002e-07
	8.105469852517358e-19
	8.105469852490123e-19

 41	3.428000000000002e-07
	8.105469852517358e-19
	8.105469852490123e-19

 42	3.528000000000002e-07
	8.105469852517358e-19
	8.105469852490123e-19

 43	3.628000000000002e-07
	8.105469852517358e-19
	8.105469852490123e-19

 44	3.728000000000002e-07
	8.105469852517358e-19
	8.105469852490123e-19

 45	3.828000000000002e-07
	8.105469852517358e-19
	8.105469852490123e-19

 46	3.928000000000002e-07
	8.105469852517358e-19
	8.105469852490123e-19

 47	4.028000000000002e-07
	8.105469852517358e-19
	8.105469852490123e-19

 48	4.128000000000003e-07
	8.105469852517358e-19
	8.105469852490123e-19

 49	4.228000000000003e-07
	8.105469852517358e-19
	8.105469852490123e-19

 50	4.328000000000003e-07
	8.105469852517358e-19
	8.105469852490123e-19

 51	4.428000000000003e-07
	8.105469852517358e-19
	8.105469852490123e-19

 52	4.528000000000003e-07
	8.105469852517358e-19
	8.105469852490123e-19

 53	4.628000000000003e-07
	8.105469852517358e-19
	8.105469852490123e-19

 54	4.728000000000003e-07
	8.105469852517358e-19
	8.105469852490123e-19

 55	4.828000000000003e-07
	8.105469852517358e-19
	8.105469852490123e-19

 56	4.928000000000003e-07
	8.105469852517358e-19
	8.105469852490123e-19

 57	5.028000000000003e-07
	8.105469852517358e-19
	8.105469852490123e-19

 58	5.128000000000003e-07
	8.105469852517358e-19
	8.105469852490123e-19

 59	5.228000000000003e-07
	8.105469852517358e-19
	8.105469852490123e-19

 60	5.328000000000003e-07
	8.105469852517358e-19
	8.105469852490123e-19

 61	5.428000000000003e-07
	8.105469852517358e-19
	8.105469852490123e-19

 62	5.528000000000003e-07
	8.105469852517358e-19
	8.105469852490123e-19

 63	5.628000000000004e-07
	8.105469852517358e-19
	8.105469852490123e-19

 64	5.728000000000004e-07
	8.105469852517358e-19
	8.105469852490123e-19

 65	5.828000000000004e-07
	8.105469852517358e-19
	8.105469852490123e-19

 66	5.928000000000004e-07
	8.105469852517358e-19
	8.105469852490123e-19

 67	6.028000000000004e-07
	8.105469852517358e-19
	8.105469852490123e-19

 68	6.128000000000004e-07
	8.105469852517358e-19
	8.105469852490123e-19

 69	6.228000000000004e-07
	8.105469852517358e-19
	8.105469852490123e-19

 70	6.328000000000004e-07
	8.105469852517358e-19
	8.105469852490123e-19

 71	6.428000000000004e-07
	8.105469852517358e-19
	8.105469852490123e-19

 72	6.528000000000004e-07
	8.105469852517358e-19
	8.105469852490123e-19

 73	6.628000000000005e-07
	8.105469852517358e-19
	8.105469852490123e-19

 74	6.728000000000005e-07
	8.105469852517358e-19
	8.105469852490123e-19

 75	6.828000000000005e-07
	8.105469852517358e-19
	8.105469852490123e-19

 76	6.928000000000005e-07
	8.105469852517358e-19
	8.105469852490123e-19

 77	7.028000000000005e-07
	8.105469852517358e-19
	8.105469852490123e-19

 78	7.128000000000005e-07
	8.105469852517358e-19
	8.105469852490123e-19

 79	7.228000000000005e-07
	8.105469852517358e-19
	8.105469852490123e-19

 80	7.328000000000005e-07
	8.105469852517358e-19
	8.105469852490123e-19

 81	7.428000000000005e-07
	8.105469852517358e-19
	8.105469852490123e-19

 82	7.528000000000005e-07
	8.105469852517358e-19
	8.105469852490123e-19

 83	7.628000000000006e-07
	8.105469852517358e-19
	8.105469852490123e-19

 84	7.728000000000006e-07
	8.105469852517358e-19
	8.105469852490123e-19

 85	7.828000000000006e-07
	8.105469852517358e-19
	8.105469852490123e-19

 86	7.928000000000006e-07
	8.105469852517358e-19
	8.105469852490123e-19

 87	8.028000000000006e-07
	8.105469852517358e-19
	8.105469852490123e-19

 88	8.128000000000006e-07
	8.105469852517358e-19
	8.105469852490123e-19

 89	8.228000000000006e-07
	8.105469852517358e-19
	8.105469852490123e-19

 90	8.328000000000006e-07
	8.105469852517358e-19
	8.105469852490123e-19

 91	8.428000000000006e-07
	8.105469852517358e-19
	8.105469852490123e-19

 92	8.528000000000006e-07
	8.105469852517358e-19
	8.105469852490123e-19

 93	8.628000000000007e-07
	8.105469852517358e-19
	8.105469852490123e-19

 94	8.728000000000007e-07
	8.105469852517358e-19
	8.105469852490123e-19

 95	8.828000000000007e-07
	8.105469852517358e-19
	8.105469852490123e-19

 96	8.928000000000007e-07
	8.105469852517358e-19
	8.105469852490123e-19

 97	9.028000000000007e-07
	8.105469852517358e-19
	8.105469852490123e-19

 98	9.128000000000007e-07
	8.105469852517358e-19
	8.105469852490123e-19

 99	9.228000000000007e-07
	8.105469852517358e-19
	8.105469852490123e-19

 100	9.328000000000007e-07
	8.105469852517358e-19
	8.105469852490123e-19

 101	9.428000000000007e-07
	8.105469852517358e-19
	8.105469852490123e-19

 102	9.528000000000007e-07
	8.105469852517358e-19
	8.105469852490123e-19

 103	9.628000000000008e-07
	8.105469852517358e-19
	8.105469852490123e-19

 104	9.728000000000007e-07
	8.105469852517358e-19
	8.105469852490123e-19

 105	9.828000000000006e-07
	8.105469852517358e-19
	8.105469852490123e-19

 106	9.914000000000004e-07
	8.101245518677091e-19
	8.101245518649871e-19

 107	1.000000000000000e-06
	-2.700415172892364e-19
	-2.700415172883290e-19

 108	1.001000000000000e-06
	-1.968373745339327e-03
	-1.968373745332713e-03

 109	1.003000000000000e-06
	-2.030626034637896e-03
	-2.030626034631073e-03

 110	1.003548611111111e-06
	-1.972763226983723e-03
	-1.972763226977095e-03

 111	1.004508680555555e-06
	-2.025472544057077e-03
	-2.025472544050271e-03

 112	1.005571614583333e-06
	-6.733842109167540e-02
	-6.733842109144915e-02

 113	1.007697482638889e-06
	-3.319605123349857e-01
	-3.319605123338704e-01

 114	1.010000000000000e-06
	-6.185714091837369e-01
	-6.185714091816585e-01

 115	1.010310169693259e-06
	-6.185714078702059e-01
	-6.185714078681276e-01

 116	1.010930509079777e-06
	-6.185714052431440e-01
	-6.185714052410657e-01

 117	1.012171187852813e-06
	-6.185713999890119e-01
	-6.185713999869336e-01

 118	1.014652545398885e-06
	-6.185713894807369e-01
	-6.185713894786585e-01

 119	1.019615260491029e-06
	-6.185713684642015e-01
	-6.185713684621231e-01

 120	1.029540690675316e-06
	-6.185713264311481e-01
	-6.185713264290698e-01

 121	1.039540690675316e-06
	-6.185712840823111e-01
	-6.185712840802328e-01

 122	1.049540690675316e-06
	-6.185712417334797e-01
	-6.185712417314013e-01

 123	1.059540690675316e-06
	-6.185711993846510e-01
	-6.185711993825727e-01

 124	1.069540690675316e-06
	-6.185711570358252e-01
	-6.185711570337469e-01

 125	1.079540690675315e-06
	-6.185711146870024e-01
	-6.185711146849241e-01

 126	1.089540690675315e-06
	-6.185710723381824e-01
	-6.185710723361041e-01

 127	1.099540690675315e-06
	-6.185710299893654e-01
	-6.185710299872871e-01

 128	1.109540690675315e-06
	-6.185709876405512e-01
	-6.185709876384728e-01

 129	1.119540690675315e-06
	-6.185709452917401e-01
	-6.185709452896617e-01

 130	1.129540690675315e-06
	-6.185709029429318e-01
	-6.185709029408535e-01

 131	1.139540690675315e-06
	-6.185708605941265e-01
	-6.185708605920481e-01

 132	1.149540690675315e-06
	-6.185708182453238e-01
	-6.185708182432454e-01

 133	1.159540690675315e-06
	-6.185707758965240e-01
	-6.185707758944456e-01

 134	1.169540690675315e-06
	-6.185707335477273e-01
	-6.185707335456490e-01

 135	1.179540690675314e-06
	-6.185706911989335e-01
	-6.185706911968551e-01

 136	1.189540690675314e-06
	-6.185706488501425e-01
	-6.185706488480641e-01

 137	1.199540690675314e-06
	-6.185706065013544e-01
	-6.185706064992761e-01

 138	1.209540690675314e-06
	-6.185705641525693e-01
	-6.185705641504909e-01

 139	1.219540690675314e-06
	-6.185705218037869e-01
	-6.185705218017086e-01

 140	1.229540690675314e-06
	-6.185704794550074e-01
	-6.185704794529291e-01

 141	1.239540690675314e-06
	-6.185704371062308e-01
	-6.185704371041525e-01

 142	1.249540690675314e-06
	-6.185703947574575e-01
	-6.185703947553791e-01

 143	1.259540690675314e-06
	-6.185703524086870e-01
	-6.185703524066086e-01

 144	1.269540690675314e-06
	-6.185703100599191e-01
	-6.185703100578408e-01

 145	1.279540690675314e-06
	-6.185702677111545e-01
	-6.185702677090762e-01

 146	1.289540690675313e-06
	-6.185702253623925e-01
	-6.185702253603141e-01

 147	1.299540690675313e-06
	-6.185701830136333e-01
	-6.185701830115550e-01

 148	1.309540690675313e-06
	-6.185701406648773e-01
	-6.185701406627989e-01

 149	1.319540690675313e-06
	-6.185700983161242e-01
	-6.185700983140459e-01

 150	1.329540690675313e-06
	-6.185700559673740e-01
	-6.185700559652957e-01

 151	1.339540690675313e-06
	-6.185700136186267e-01
	-6.185700136165484e-01

 152	1.349540690675313e-06
	-6.185699712698821e-01
	-6.185699712678038e-01

 153	1.359540690675313e-06
	-6.185699289211404e-01
	-6.185699289190620e-01

 154	1.369540690675313e-06
	-6.185698865724016e-01
	-6.185698865703233e-01

 155	1.379540690675313e-06
	-6.185698442236658e-01
	-6.185698442215875e-01

 156	1.389540690675312e-06
	-6.185698018749327e-01
	-6.185698018728544e-01

 157	1.399540690675312e-06
	-6.185697595262026e-01
	-6.185697595241243e-01

 158	1.409540690675312e-06
	-6.185697171774756e-01
	-6.185697171753972e-01

 159	1.419540690675312e-06
	-6.185696748287512e-01
	-6.185696748266729e-01

 160	1.429540690675312e-06
	-6.185696324800297e-01
	-6.185696324779514e-01

 161	1.439540690675312e-06
	-6.185695901313113e-01
	-6.185695901292330e-01

 162	1.449540690675312e-06
	-6.185695477825958e-01
	-6.185695477805174e-01

 163	1.459540690675312e-06
	-6.185695054338832e-01
	-6.185695054318049e-01

 164	1.469540690675312e-06
	-6.185694630851737e-01
	-6.185694630830953e-01

 165	1.479540690675312e-06
	-6.185694207364669e-01
	-6.185694207343886e-01

 166	1.489540690675312e-06
	-6.185693783877629e-01
	-6.185693783856846e-01

 167	1.499540690675311e-06
	-6.185693360390618e-01
	-6.185693360369835e-01

 168	1.509540690675311e-06
	-6.185692936903636e-01
	-6.185692936882853e-01

 169	1.519540690675311e-06
	-6.185692513416684e-01
	-6.185692513395901e-01

 170	1.529540690675311e-06
	-6.185692089929761e-01
	-6.185692089908977e-01

 171	1.539540690675311e-06
	-6.185691666442865e-01
	-6.185691666422082e-01

 172	1.549540690675311e-06
	-6.185691242955998e-01
	-6.185691242935215e-01

 173	1.559540690675311e-06
	-6.185690819469161e-01
	-6.185690819448377e-01

 174	1.569540690675311e-06
	-6.185690395982352e-01
	-6.185690395961568e-01

 175	1.579540690675311e-06
	-6.185689972495573e-01
	-6.185689972474789e-01

 176	1.589540690675311e-06
	-6.185689549008824e-01
	-6.185689548988040e-01

 177	1.599540690675310e-06
	-6.185689125522102e-01
	-6.185689125501319e-01

 178	1.609540690675310e-06
	-6.185688702035410e-01
	-6.185688702014627e-01

 179	1.619540690675310e-06
	-6.185688278548747e-01
	-6.185688278527963e-01

 180	1.629540690675310e-06
	-6.185687855062112e-01
	-6.185687855041329e-01

 181	1.639540690675310e-06
	-6.185687431575507e-01
	-6.185687431554724e-01

 182	1.649540690675310e-06
	-6.185687008088933e-01
	-6.185687008068149e-01

 183	1.659540690675310e-06
	-6.185686584602386e-01
	-6.185686584581602e-01

 184	1.669540690675310e-06
	-6.185686161115869e-01
	-6.185686161095085e-01

 185	1.679540690675310e-06
	-6.185685737629383e-01
	-6.185685737608599e-01

 186	1.689540690675310e-06
	-6.185685314142922e-01
	-6.185685314122139e-01

 187	1.699540690675310e-06
	-6.185684890656491e-01
	-6.185684890635708e-01

 188	1.709540690675309e-06
	-6.185684467170089e-01
	-6.185684467149306e-01

 189	1.719540690675309e-06
	-6.185684043683717e-01
	-6.185684043662933e-01

 190	1.729540690675309e-06
	-6.185683620197371e-01
	-6.185683620176587e-01

 191	1.739540690675309e-06
	-6.185683196711056e-01
	-6.185683196690273e-01

 192	1.749540690675309e-06
	-6.185682773224771e-01
	-6.185682773203988e-01

 193	1.759540690675309e-06
	-6.185682349738516e-01
	-6.185682349717733e-01

 194	1.769540690675309e-06
	-6.185681926252290e-01
	-6.185681926231507e-01

 195	1.779540690675309e-06
	-6.185681502766092e-01
	-6.185681502745308e-01

 196	1.789540690675309e-06
	-6.185681079279923e-01
	-6.185681079259140e-01

 197	1.799540690675309e-06
	-6.185680655793783e-01
	-6.185680655772999e-01

 198	1.809540690675308e-06
	-6.185680232307670e-01
	-6.185680232286886e-01

 199	1.819540690675308e-06
	-6.185679808821588e-01
	-6.185679808800805e-01

 200	1.829540690675308e-06
	-6.185679385335536e-01
	-6.185679385314753e-01

 201	1.839540690675308e-06
	-6.185678961849511e-01
	-6.185678961828728e-01

 202	1.849540690675308e-06
	-6.185678538363515e-01
	-6.185678538342732e-01

 203	1.859540690675308e-06
	-6.185678114877550e-01
	-6.185678114856766e-01

 204	1.869540690675308e-06
	-6.185677691391613e-01
	-6.185677691370830e-01

 205	1.879540690675308e-06
	-6.185677267905705e-01
	-6.185677267884921e-01

 206	1.889540690675308e-06
	-6.185676844419825e-01
	-6.185676844399042e-01

 207	1.899540690675308e-06
	-6.185676420933974e-01
	-6.185676420913191e-01

 208	1.909540690675308e-06
	-6.185675997448152e-01
	-6.185675997427369e-01

 209	1.919540690675308e-06
	-6.185675573962359e-01
	-6.185675573941576e-01

 210	1.929540690675308e-06
	-6.185675150476594e-01
	-6.185675150455811e-01

 211	1.939540690675307e-06
	-6.185674726990860e-01
	-6.185674726970076e-01

 212	1.949540690675307e-06
	-6.185674303505153e-01
	-6.185674303484370e-01

 213	1.959540690675307e-06
	-6.185673880019478e-01
	-6.185673879998694e-01

 214	1.969540690675307e-06
	-6.185673456533830e-01
	-6.185673456513047e-01

 215	1.979540690675307e-06
	-6.185673033048210e-01
	-6.185673033027427e-01

 216	1.989540690675307e-06
	-6.185672609562619e-01
	-6.185672609541836e-01

 217	1.994770345337653e-06
	-6.185672388094110e-01
	-6.185672388073327e-01

 218	1.999999999999999e-06
	-6.185672166625733e-01
	-6.185672166604950e-01

 219	2.000601944731789e-06
	-5.646187719328414e-01
	-5.646187719309442e-01

 220	2.001805834195368e-06
	-4.567218829179500e-01
	-4.567218829164155e-01

 221	2.004213613122525e-06
	-2.409281075560193e-01
	-2.409281075552098e-01

 222	2.007106806561263e-06
	1.837025103765826e-02
	1.837025103759653e-02

 223	2.010000000000000e-06
	2.776686044952911e-01
	2.776686044943581e-01

 224	2.010260245822548e-06
	2.776686040005690e-01
	2.776686039996360e-01

 225	2.010780737467644e-06
	2.776686030111247e-01
	2.776686030101918e-01

 226	2.011821720757835e-06
	2.776686010322354e-01
	2.776686010313024e-01

 227	2.013903687338218e-06
	2.776685970744487e-01
	2.776685970735158e-01

 228	2.018067620498983e-06
	2.776685891588678e-01
	2.776685891579349e-01

 229	2.026395486820512e-06
	2.776685733277383e-01
	2.776685733268053e-01

 230	2.036395486820512e-06
	2.776685543179210e-01
	2.776685543169880e-01

 231	2.046395486820512e-06
	2.776685353080846e-01
	2.776685353071516e-01

 232	2.056395486820512e-06
	2.776685162982497e-01
	2.776685162973167e-01

 233	2.066395486820512e-06
	2.776684972884162e-01
	2.776684972874833e-01

 234	2.076395486820512e-06
	2.776684782785839e-01
	2.776684782776510e-01

 235	2.086395486820512e-06
	2.776684592687528e-01
	2.776684592678198e-01

 236	2.096395486820512e-06
	2.776684402589231e-01
	2.776684402579901e-01

 237	2.106395486820512e-06
	2.776684212490946e-01
	2.776684212481616e-01

 238	2.116395486820512e-06
	2.776684022392674e-01
	2.776684022383344e-01

 239	2.126395486820512e-06
	2.776683832294415e-01
	2.776683832285085e-01

 240	2.136395486820511e-06
	2.776683642196168e-01
	2.776683642186838e-01

 241	2.146395486820511e-06
	2.776683452097935e-01
	2.776683452088605e-01

 242	2.156395486820511e-06
	2.776683261999717e-01
	2.776683261990388e-01

 243	2.166395486820511e-06
	2.776683071901510e-01
	2.776683071892180e-01

 244	2.176395486820511e-06
	2.776682881803316e-01
	2.776682881793986e-01

 245	2.186395486820511e-06
	2.776682691705135e-01
	2.776682691695805e-01

 246	2.196395486820511e-06
	2.776682501606967e-01
	2.776682501597637e-01

 247	2.206395486820511e-06
	2.776682311508811e-01
	2.776682311499482e-01

 248	2.216395486820511e-06
	2.776682121410670e-01
	2.776682121401340e-01

 249	2.226395486820511e-06
	2.776681931312540e-01
	2.776681931303210e-01

 250	2.236395486820510e-06
	2.776681741214425e-01
	2.776681741205095e-01

 251	2.246395486820510e-06
	2.776681551116323e-01
	2.776681551106993e-01

 252	2.256395486820510e-06
	2.776681361018233e-01
	2.776681361008904e-01

 253	2.266395486820510e-06
	2.776681170920158e-01
	2.776681170910828e-01

 254	2.276395486820510e-06
	2.776680980822093e-01
	2.776680980812763e-01

 255	2.286395486820510e-06
	2.776680790724044e-01
	2.776680790714714e-01

 256	2.296395486820510e-06
	2.776680600626007e-01
	2.776680600616677e-01

 257	2.306395486820510e-06
	2.776680410527982e-01
	2.776680410518653e-01

 258	2.316395486820510e-06
	2.776680220429973e-01
	2.776680220420644e-01

 259	2.326395486820510e-06
	2.776680030331975e-01
	2.776680030322645e-01

 260	2.336395486820510e-06
	2.776679840233990e-01
	2.776679840224660e-01

 261	2.346395486820509e-06
	2.776679650136018e-01
	2.776679650126688e-01

 262	2.356395486820509e-06
	2.776679460038059e-01
	2.776679460028729e-01

 263	2.366395486820509e-06
	2.776679269940109e-01
	2.776679269930780e-01

 264	2.376395486820509e-06
