Title: * conversor dac de redistribuicao de carga (4-bits) - aqua monitor
Date: Thu May  7 00:01:17  2026
Command: ngspice-46, Build Mar 29 2026   15:02:07
Plotname: Transient Analysis
Flags: real
No. Variables: 6
No. Points: 763
Variables:
	0	time	time
	1	v(vtop)	voltage
	2	v(vbot3)	voltage
	3	v(vbot2)	voltage
	4	v(vbot1)	voltage
	5	v(vbot0)	voltage
Values:
 0	0.000000000000000e+00
	0.000000000000000e+00
	1.250000000000000e+00
	1.250000000000000e+00
	1.250000000000000e+00
	1.250000000000000e+00

 1	1.000000000000000e-10
	1.495451272380907e-17
	1.250000000000000e+00
	1.250000000000000e+00
	1.250000000000000e+00
	1.250000000000000e+00

 2	2.000000000000000e-10
	1.495451272380907e-17
	1.250000000000000e+00
	1.250000000000000e+00
	1.250000000000000e+00
	1.250000000000000e+00

 3	4.000000000000000e-10
	1.495451272380907e-17
	1.250000000000000e+00
	1.250000000000000e+00
	1.250000000000000e+00
	1.250000000000000e+00

 4	8.000000000000000e-10
	8.031127203521967e-18
	1.250000000000000e+00
	1.250000000000000e+00
	1.250000000000000e+00
	1.250000000000000e+00

 5	1.600000000000000e-09
	4.170008355673382e-18
	1.250000000000000e+00
	1.250000000000000e+00
	1.250000000000000e+00
	1.250000000000000e+00

 6	3.200000000000000e-09
	2.125886612695833e-18
	1.250000000000000e+00
	1.250000000000000e+00
	1.250000000000000e+00
	1.250000000000000e+00

 7	6.400000000000000e-09
	1.073467497499772e-18
	1.250000000000000e+00
	1.250000000000000e+00
	1.250000000000000e+00
	1.250000000000000e+00

 8	1.280000000000000e-08
	5.394040659078191e-19
	1.250000000000000e+00
	1.250000000000000e+00
	1.250000000000000e+00
	1.250000000000000e+00

 9	2.280000000000000e-08
	8.105578442544084e-19
	1.250000000000000e+00
	1.250000000000000e+00
	1.250000000000000e+00
	1.250000000000000e+00

 10	3.280000000000000e-08
	8.105578442544084e-19
	1.250000000000000e+00
	1.250000000000000e+00
	1.250000000000000e+00
	1.250000000000000e+00

 11	4.280000000000000e-08
	8.105578442544084e-19
	1.250000000000000e+00
	1.250000000000000e+00
	1.250000000000000e+00
	1.250000000000000e+00

 12	5.280000000000000e-08
	8.105578442544084e-19
	1.250000000000000e+00
	1.250000000000000e+00
	1.250000000000000e+00
	1.250000000000000e+00

 13	6.279999999999999e-08
	8.105578442544084e-19
	1.250000000000000e+00
	1.250000000000000e+00
	1.250000000000000e+00
	1.250000000000000e+00

 14	7.279999999999999e-08
	8.105578442544084e-19
	1.250000000000000e+00
	1.250000000000000e+00
	1.250000000000000e+00
	1.250000000000000e+00

 15	8.279999999999999e-08
	8.105578442544084e-19
	1.250000000000000e+00
	1.250000000000000e+00
	1.250000000000000e+00
	1.250000000000000e+00

 16	9.279999999999998e-08
	8.105578442544084e-19
	1.250000000000000e+00
	1.250000000000000e+00
	1.250000000000000e+00
	1.250000000000000e+00

 17	1.028000000000000e-07
	8.105578442544084e-19
	1.250000000000000e+00
	1.250000000000000e+00
	1.250000000000000e+00
	1.250000000000000e+00

 18	1.128000000000000e-07
	8.105578442544084e-19
	1.250000000000000e+00
	1.250000000000000e+00
	1.250000000000000e+00
	1.250000000000000e+00

 19	1.228000000000000e-07
	8.105578442544084e-19
	1.250000000000000e+00
	1.250000000000000e+00
	1.250000000000000e+00
	1.250000000000000e+00

 20	1.328000000000000e-07
	8.105578442544084e-19
	1.250000000000000e+00
	1.250000000000000e+00
	1.250000000000000e+00
	1.250000000000000e+00

 21	1.428000000000000e-07
	8.105578442544084e-19
	1.250000000000000e+00
	1.250000000000000e+00
	1.250000000000000e+00
	1.250000000000000e+00

 22	1.528000000000000e-07
	8.105578442544084e-19
	1.250000000000000e+00
	1.250000000000000e+00
	1.250000000000000e+00
	1.250000000000000e+00

 23	1.628000000000000e-07
	8.105578442544084e-19
	1.250000000000000e+00
	1.250000000000000e+00
	1.250000000000000e+00
	1.250000000000000e+00

 24	1.728000000000000e-07
	8.105578442544084e-19
	1.250000000000000e+00
	1.250000000000000e+00
	1.250000000000000e+00
	1.250000000000000e+00

 25	1.828000000000000e-07
	8.105578442544084e-19
	1.250000000000000e+00
	1.250000000000000e+00
	1.250000000000000e+00
	1.250000000000000e+00

 26	1.928000000000001e-07
	8.105578442544084e-19
	1.250000000000000e+00
	1.250000000000000e+00
	1.250000000000000e+00
	1.250000000000000e+00

 27	2.028000000000001e-07
	8.105578442544084e-19
	1.250000000000000e+00
	1.250000000000000e+00
	1.250000000000000e+00
	1.250000000000000e+00

 28	2.128000000000001e-07
	8.105578442544084e-19
	1.250000000000000e+00
	1.250000000000000e+00
	1.250000000000000e+00
	1.250000000000000e+00

 29	2.228000000000001e-07
	8.105578442544084e-19
	1.250000000000000e+00
	1.250000000000000e+00
	1.250000000000000e+00
	1.250000000000000e+00

 30	2.328000000000001e-07
	8.105578442544084e-19
	1.250000000000000e+00
	1.250000000000000e+00
	1.250000000000000e+00
	1.250000000000000e+00

 31	2.428000000000001e-07
	8.105578442544084e-19
	1.250000000000000e+00
	1.250000000000000e+00
	1.250000000000000e+00
	1.250000000000000e+00

 32	2.528000000000001e-07
	8.105578442544084e-19
	1.250000000000000e+00
	1.250000000000000e+00
	1.250000000000000e+00
	1.250000000000000e+00

 33	2.628000000000001e-07
	8.105578442544084e-19
	1.250000000000000e+00
	1.250000000000000e+00
	1.250000000000000e+00
	1.250000000000000e+00

 34	2.728000000000001e-07
	8.105578442544084e-19
	1.250000000000000e+00
	1.250000000000000e+00
	1.250000000000000e+00
	1.250000000000000e+00

 35	2.828000000000001e-07
	8.105578442544084e-19
	1.250000000000000e+00
	1.250000000000000e+00
	1.250000000000000e+00
	1.250000000000000e+00

 36	2.928000000000001e-07
	8.105578442544084e-19
	1.250000000000000e+00
	1.250000000000000e+00
	1.250000000000000e+00
	1.250000000000000e+00

 37	3.028000000000001e-07
	8.105578442544084e-19
	1.250000000000000e+00
	1.250000000000000e+00
	1.250000000000000e+00
	1.250000000000000e+00

 38	3.128000000000002e-07
	8.105578442544084e-19
	1.250000000000000e+00
	1.250000000000000e+00
	1.250000000000000e+00
	1.250000000000000e+00

 39	3.228000000000002e-07
	8.105578442544084e-19
	1.250000000000000e+00
	1.250000000000000e+00
	1.250000000000000e+00
	1.250000000000000e+00

 40	3.328000000000002e-07
	8.105578442544084e-19
	1.250000000000000e+00
	1.250000000000000e+00
	1.250000000000000e+00
	1.250000000000000e+00

 41	3.428000000000002e-07
	8.105578442544084e-19
	1.250000000000000e+00
	1.250000000000000e+00
	1.250000000000000e+00
	1.250000000000000e+00

 42	3.528000000000002e-07
	8.105578442544084e-19
	1.250000000000000e+00
	1.250000000000000e+00
	1.250000000000000e+00
	1.250000000000000e+00

 43	3.628000000000002e-07
	8.105578442544084e-19
	1.250000000000000e+00
	1.250000000000000e+00
	1.250000000000000e+00
	1.250000000000000e+00

 44	3.728000000000002e-07
	8.105578442544084e-19
	1.250000000000000e+00
	1.250000000000000e+00
	1.250000000000000e+00
	1.250000000000000e+00

 45	3.828000000000002e-07
	8.105578442544084e-19
	1.250000000000000e+00
	1.250000000000000e+00
	1.250000000000000e+00
	1.250000000000000e+00

 46	3.928000000000002e-07
	8.105578442544084e-19
	1.250000000000000e+00
	1.250000000000000e+00
	1.250000000000000e+00
	1.250000000000000e+00

 47	4.028000000000002e-07
	8.105578442544084e-19
	1.250000000000000e+00
	1.250000000000000e+00
	1.250000000000000e+00
	1.250000000000000e+00

 48	4.128000000000003e-07
	8.105578442544084e-19
	1.250000000000000e+00
	1.250000000000000e+00
	1.250000000000000e+00
	1.250000000000000e+00

 49	4.228000000000003e-07
	8.105578442544084e-19
	1.250000000000000e+00
	1.250000000000000e+00
	1.250000000000000e+00
	1.250000000000000e+00

 50	4.328000000000003e-07
	8.105578442544084e-19
	1.250000000000000e+00
	1.250000000000000e+00
	1.250000000000000e+00
	1.250000000000000e+00

 51	4.428000000000003e-07
	8.105578442544084e-19
	1.250000000000000e+00
	1.250000000000000e+00
	1.250000000000000e+00
	1.250000000000000e+00

 52	4.528000000000003e-07
	8.105578442544084e-19
	1.250000000000000e+00
	1.250000000000000e+00
	1.250000000000000e+00
	1.250000000000000e+00

 53	4.628000000000003e-07
	8.105578442544084e-19
	1.250000000000000e+00
	1.250000000000000e+00
	1.250000000000000e+00
	1.250000000000000e+00

 54	4.728000000000003e-07
	8.105578442544084e-19
	1.250000000000000e+00
	1.250000000000000e+00
	1.250000000000000e+00
	1.250000000000000e+00

 55	4.828000000000003e-07
	8.105578442544084e-19
	1.250000000000000e+00
	1.250000000000000e+00
	1.250000000000000e+00
	1.250000000000000e+00

 56	4.928000000000003e-07
	8.105578442544084e-19
	1.250000000000000e+00
	1.250000000000000e+00
	1.250000000000000e+00
	1.250000000000000e+00

 57	5.028000000000003e-07
	8.105578442544084e-19
	1.250000000000000e+00
	1.250000000000000e+00
	1.250000000000000e+00
	1.250000000000000e+00

 58	5.128000000000003e-07
	8.105578442544084e-19
	1.250000000000000e+00
	1.250000000000000e+00
	1.250000000000000e+00
	1.250000000000000e+00

 59	5.228000000000003e-07
	8.105578442544084e-19
	1.250000000000000e+00
	1.250000000000000e+00
	1.250000000000000e+00
	1.250000000000000e+00

 60	5.328000000000003e-07
	8.105578442544084e-19
	1.250000000000000e+00
	1.250000000000000e+00
	1.250000000000000e+00
	1.250000000000000e+00

 61	5.428000000000003e-07
	8.105578442544084e-19
	1.250000000000000e+00
	1.250000000000000e+00
	1.250000000000000e+00
	1.250000000000000e+00

 62	5.528000000000003e-07
	8.105578442544084e-19
	1.250000000000000e+00
	1.250000000000000e+00
	1.250000000000000e+00
	1.250000000000000e+00

 63	5.628000000000004e-07
	8.105578442544084e-19
	1.250000000000000e+00
	1.250000000000000e+00
	1.250000000000000e+00
	1.250000000000000e+00

 64	5.728000000000004e-07
	8.105578442544084e-19
	1.250000000000000e+00
	1.250000000000000e+00
	1.250000000000000e+00
	1.250000000000000e+00

 65	5.828000000000004e-07
	8.105578442544084e-19
	1.250000000000000e+00
	1.250000000000000e+00
	1.250000000000000e+00
	1.250000000000000e+00

 66	5.928000000000004e-07
	8.105578442544084e-19
	1.250000000000000e+00
	1.250000000000000e+00
	1.250000000000000e+00
	1.250000000000000e+00

 67	6.028000000000004e-07
	8.105578442544084e-19
	1.250000000000000e+00
	1.250000000000000e+00
	1.250000000000000e+00
	1.250000000000000e+00

 68	6.128000000000004e-07
	8.105578442544084e-19
	1.250000000000000e+00
	1.250000000000000e+00
	1.250000000000000e+00
	1.250000000000000e+00

 69	6.228000000000004e-07
	8.105578442544084e-19
	1.250000000000000e+00
	1.250000000000000e+00
	1.250000000000000e+00
	1.250000000000000e+00

 70	6.328000000000004e-07
	8.105578442544084e-19
	1.250000000000000e+00
	1.250000000000000e+00
	1.250000000000000e+00
	1.250000000000000e+00

 71	6.428000000000004e-07
	8.105578442544084e-19
	1.250000000000000e+00
	1.250000000000000e+00
	1.250000000000000e+00
	1.250000000000000e+00

 72	6.528000000000004e-07
	8.105578442544084e-19
	1.250000000000000e+00
	1.250000000000000e+00
	1.250000000000000e+00
	1.250000000000000e+00

 73	6.628000000000005e-07
	8.105578442544084e-19
	1.250000000000000e+00
	1.250000000000000e+00
	1.250000000000000e+00
	1.250000000000000e+00

 74	6.728000000000005e-07
	8.105578442544084e-19
	1.250000000000000e+00
	1.250000000000000e+00
	1.250000000000000e+00
	1.250000000000000e+00

 75	6.828000000000005e-07
	8.105578442544084e-19
	1.250000000000000e+00
	1.250000000000000e+00
	1.250000000000000e+00
	1.250000000000000e+00

 76	6.928000000000005e-07
	8.105578442544084e-19
	1.250000000000000e+00
	1.250000000000000e+00
	1.250000000000000e+00
	1.250000000000000e+00

 77	7.028000000000005e-07
	8.105578442544084e-19
	1.250000000000000e+00
	1.250000000000000e+00
	1.250000000000000e+00
	1.250000000000000e+00

 78	7.128000000000005e-07
	8.105578442544084e-19
	1.250000000000000e+00
	1.250000000000000e+00
	1.250000000000000e+00
	1.250000000000000e+00

 79	7.228000000000005e-07
	8.105578442544084e-19
	1.250000000000000e+00
	1.250000000000000e+00
	1.250000000000000e+00
	1.250000000000000e+00

 80	7.328000000000005e-07
	8.105578442544084e-19
	1.250000000000000e+00
	1.250000000000000e+00
	1.250000000000000e+00
	1.250000000000000e+00

 81	7.428000000000005e-07
	8.105578442544084e-19
	1.250000000000000e+00
	1.250000000000000e+00
	1.250000000000000e+00
	1.250000000000000e+00

 82	7.528000000000005e-07
	8.105578442544084e-19
	1.250000000000000e+00
	1.250000000000000e+00
	1.250000000000000e+00
	1.250000000000000e+00

 83	7.628000000000006e-07
	8.105578442544084e-19
	1.250000000000000e+00
	1.250000000000000e+00
	1.250000000000000e+00
	1.250000000000000e+00

 84	7.728000000000006e-07
	8.105578442544084e-19
	1.250000000000000e+00
	1.250000000000000e+00
	1.250000000000000e+00
	1.250000000000000e+00

 85	7.828000000000006e-07
	8.105578442544084e-19
	1.250000000000000e+00
	1.250000000000000e+00
	1.250000000000000e+00
	1.250000000000000e+00

 86	7.928000000000006e-07
	8.105578442544084e-19
	1.250000000000000e+00
	1.250000000000000e+00
	1.250000000000000e+00
	1.250000000000000e+00

 87	8.028000000000006e-07
	8.105578442544084e-19
	1.250000000000000e+00
	1.250000000000000e+00
	1.250000000000000e+00
	1.250000000000000e+00

 88	8.128000000000006e-07
	8.105578442544084e-19
	1.250000000000000e+00
	1.250000000000000e+00
	1.250000000000000e+00
	1.250000000000000e+00

 89	8.228000000000006e-07
	8.105578442544084e-19
	1.250000000000000e+00
	1.250000000000000e+00
	1.250000000000000e+00
	1.250000000000000e+00

 90	8.328000000000006e-07
	8.105578442544084e-19
	1.250000000000000e+00
	1.250000000000000e+00
	1.250000000000000e+00
	1.250000000000000e+00

 91	8.428000000000006e-07
	8.105578442544084e-19
	1.250000000000000e+00
	1.250000000000000e+00
	1.250000000000000e+00
	1.250000000000000e+00

 92	8.528000000000006e-07
	8.105578442544084e-19
	1.250000000000000e+00
	1.250000000000000e+00
	1.250000000000000e+00
	1.250000000000000e+00

 93	8.628000000000007e-07
	8.105578442544084e-19
	1.250000000000000e+00
	1.250000000000000e+00
	1.250000000000000e+00
	1.250000000000000e+00

 94	8.728000000000007e-07
	8.105578442544084e-19
	1.250000000000000e+00
	1.250000000000000e+00
	1.250000000000000e+00
	1.250000000000000e+00

 95	8.828000000000007e-07
	8.105578442544084e-19
	1.250000000000000e+00
	1.250000000000000e+00
	1.250000000000000e+00
	1.250000000000000e+00

 96	8.928000000000007e-07
	8.105578442544084e-19
	1.250000000000000e+00
	1.250000000000000e+00
	1.250000000000000e+00
	1.250000000000000e+00

 97	9.028000000000007e-07
	8.105578442544084e-19
	1.250000000000000e+00
	1.250000000000000e+00
	1.250000000000000e+00
	1.250000000000000e+00

 98	9.128000000000007e-07
	8.105578442544084e-19
	1.250000000000000e+00
	1.250000000000000e+00
	1.250000000000000e+00
	1.250000000000000e+00

 99	9.228000000000007e-07
	8.105578442544084e-19
	1.250000000000000e+00
	1.250000000000000e+00
	1.250000000000000e+00
	1.250000000000000e+00

 100	9.328000000000007e-07
	8.105578442544084e-19
	1.250000000000000e+00
	1.250000000000000e+00
	1.250000000000000e+00
	1.250000000000000e+00

 101	9.428000000000007e-07
	8.105578442544084e-19
	1.250000000000000e+00
	1.250000000000000e+00
	1.250000000000000e+00
	1.250000000000000e+00

 102	9.528000000000007e-07
	8.105578442544084e-19
	1.250000000000000e+00
	1.250000000000000e+00
	1.250000000000000e+00
	1.250000000000000e+00

 103	9.628000000000008e-07
	8.105578442544084e-19
	1.250000000000000e+00
	1.250000000000000e+00
	1.250000000000000e+00
	1.250000000000000e+00

 104	9.728000000000007e-07
	8.105578442544084e-19
	1.250000000000000e+00
	1.250000000000000e+00
	1.250000000000000e+00
	1.250000000000000e+00

 105	9.828000000000006e-07
	8.105578442544084e-19
	1.250000000000000e+00
	1.250000000000000e+00
	1.250000000000000e+00
	1.250000000000000e+00

 106	9.914000000000004e-07
	8.101371654844566e-19
	1.250000000000000e+00
	1.250000000000000e+00
	1.250000000000000e+00
	1.250000000000000e+00

 107	1.000000000000000e-06
	-2.700457218281522e-19
	1.250000000000000e+00
	1.250000000000000e+00
	1.250000000000000e+00
	1.250000000000000e+00

 108	1.001000000000000e-06
	-1.968503936988622e-03
	1.124999999999992e+00
	1.124999999999992e+00
	1.124999999999992e+00
	1.124999999999992e+00

 109	1.003000000000000e-06
	-2.030504060987238e-03
	8.750000000000027e-01
	8.750000000000027e-01
	8.750000000000027e-01
	8.750000000000027e-01

 110	1.003548611111111e-06
	-1.972858361542438e-03
	8.064236111111143e-01
	8.064236111111143e-01
	8.064236111111143e-01
	8.064236111111143e-01

 111	1.004508680555555e-06
	-2.025390687544615e-03
	6.864149305555792e-01
	6.864149305555792e-01
	6.864149305555792e-01
	6.864149305555792e-01

 112	1.005571614583333e-06
	-6.761537262031596e-02
	5.535481770833429e-01
	5.535481770833429e-01
	5.535481770833429e-01
	5.535481770833429e-01

 113	1.007697482638889e-06
	-3.333488766346737e-01
	2.878146701388704e-01
	2.878146701388704e-01
	2.878146701388704e-01
	2.878146701388704e-01

 114	1.010000000000000e-06
	-6.211635392186705e-01
	0.000000000000000e+00
	0.000000000000000e+00
	0.000000000000000e+00
	0.000000000000000e+00

 115	1.010309556312368e-06
	-6.211635378967104e-01
	0.000000000000000e+00
	0.000000000000000e+00
	0.000000000000000e+00
	0.000000000000000e+00

 116	1.010928668937102e-06
	-6.211635352527902e-01
	0.000000000000000e+00
	0.000000000000000e+00
	0.000000000000000e+00
	0.000000000000000e+00

 117	1.012166894186571e-06
	-6.211635299649502e-01
	0.000000000000000e+00
	0.000000000000000e+00
	0.000000000000000e+00
	0.000000000000000e+00

 118	1.014643344685509e-06
	-6.211635193892705e-01
	0.000000000000000e+00
	0.000000000000000e+00
	0.000000000000000e+00
	0.000000000000000e+00

 119	1.019596245683386e-06
	-6.211634982379113e-01
	0.000000000000000e+00
	0.000000000000000e+00
	0.000000000000000e+00
	0.000000000000000e+00

 120	1.029502047679138e-06
	-6.211634559351952e-01
	0.000000000000000e+00
	0.000000000000000e+00
	0.000000000000000e+00
	0.000000000000000e+00

 121	1.039502047679138e-06
	-6.211634132302092e-01
	0.000000000000000e+00
	0.000000000000000e+00
	0.000000000000000e+00
	0.000000000000000e+00

 122	1.049502047679138e-06
	-6.211633705252260e-01
	0.000000000000000e+00
	0.000000000000000e+00
	0.000000000000000e+00
	0.000000000000000e+00

 123	1.059502047679138e-06
	-6.211633278202455e-01
	0.000000000000000e+00
	0.000000000000000e+00
	0.000000000000000e+00
	0.000000000000000e+00

 124	1.069502047679138e-06
	-6.211632851152681e-01
	0.000000000000000e+00
	0.000000000000000e+00
	0.000000000000000e+00
	0.000000000000000e+00

 125	1.079502047679138e-06
	-6.211632424102937e-01
	0.000000000000000e+00
	0.000000000000000e+00
	0.000000000000000e+00
	0.000000000000000e+00

 126	1.089502047679138e-06
	-6.211631997053223e-01
	0.000000000000000e+00
	0.000000000000000e+00
	0.000000000000000e+00
	0.000000000000000e+00

 127	1.099502047679138e-06
	-6.211631570003537e-01
	0.000000000000000e+00
	0.000000000000000e+00
	0.000000000000000e+00
	0.000000000000000e+00

 128	1.109502047679138e-06
	-6.211631142953880e-01
	0.000000000000000e+00
	0.000000000000000e+00
	0.000000000000000e+00
	0.000000000000000e+00

 129	1.119502047679137e-06
	-6.211630715904251e-01
	0.000000000000000e+00
	0.000000000000000e+00
	0.000000000000000e+00
	0.000000000000000e+00

 130	1.129502047679137e-06
	-6.211630288854652e-01
	0.000000000000000e+00
	0.000000000000000e+00
	0.000000000000000e+00
	0.000000000000000e+00

 131	1.139502047679137e-06
	-6.211629861805082e-01
	0.000000000000000e+00
	0.000000000000000e+00
	0.000000000000000e+00
	0.000000000000000e+00

 132	1.149502047679137e-06
	-6.211629434755542e-01
	0.000000000000000e+00
	0.000000000000000e+00
	0.000000000000000e+00
	0.000000000000000e+00

 133	1.159502047679137e-06
	-6.211629007706031e-01
	0.000000000000000e+00
	0.000000000000000e+00
	0.000000000000000e+00
	0.000000000000000e+00

 134	1.169502047679137e-06
	-6.211628580656551e-01
	0.000000000000000e+00
	0.000000000000000e+00
	0.000000000000000e+00
	0.000000000000000e+00

 135	1.179502047679137e-06
	-6.211628153607098e-01
	0.000000000000000e+00
	0.000000000000000e+00
	0.000000000000000e+00
	0.000000000000000e+00

 136	1.189502047679137e-06
	-6.211627726557676e-01
	0.000000000000000e+00
	0.000000000000000e+00
	0.000000000000000e+00
	0.000000000000000e+00

 137	1.199502047679137e-06
	-6.211627299508283e-01
	0.000000000000000e+00
	0.000000000000000e+00
	0.000000000000000e+00
